RTDS Simulation, 0,1999
3,3A,0D
1,I_Q5_A,,,KA,1.81741E-5,-0.906422,0,0,65535,1.0,1.0,P
2,I_Q5_B,,,KA,1.0209E-5,-0.379316,0,0,65535,1.0,1.0,P
3,I_Q5_C,,,KA,1.99614E-5,-0.322057,0,0,65535,1.0,1.0,P
50.0
1
5000.0,25000
26/10/2024,18:42:38.388000
26/10/2024,18:42:39.388000
ASCII
1
1,0,49874,37155,16133
2,200,49874,37155,16133
3,400,49874,37155,16133
4,600,49874,37155,16133
5,800,49874,37155,16133
6,1000,49874,37155,16133
7,1200,49874,37155,16134
8,1400,49874,37155,16134
9,1600,49874,37155,16134
10,1800,49874,37155,16134
11,2000,49874,37155,16134
12,2200,49874,37155,16134
13,2400,49874,37155,16134
14,2600,49874,37155,16134
15,2800,49874,37155,16134
16,3000,49874,37155,16134
17,3200,49874,37155,16134
18,3400,49874,37155,16134
19,3600,49874,37155,16134
20,3800,49874,37155,16134
21,4000,49874,37155,16134
22,4200,49874,37155,16134
23,4400,49874,37155,16134
24,4600,49874,37155,16134
25,4800,49874,37155,16134
26,5000,49874,37155,16134
27,5200,49874,37154,16134
28,5400,49874,37154,16134
29,5600,49874,37154,16134
30,5800,49874,37154,16134
31,6000,49874,37154,16134
32,6200,49874,37154,16134
33,6400,49874,37154,16134
34,6600,49874,37154,16134
35,6800,49874,37154,16134
36,7000,49874,37154,16134
37,7200,49874,37154,16134
38,7400,49874,37154,16134
39,7600,49874,37154,16134
40,7800,49874,37154,16134
41,8000,49874,37154,16134
42,8200,49874,37154,16134
43,8400,49874,37154,16134
44,8600,49874,37154,16133
45,8800,49874,37154,16133
46,9000,49874,37154,16133
47,9200,49874,37154,16133
48,9400,49874,37154,16133
49,9600,49874,37154,16133
50,9800,49874,37154,16133
51,10000,49874,37154,16133
52,10200,49874,37154,16133
53,10400,49874,37154,16133
54,10600,49874,37154,16133
55,10800,49874,37154,16133
56,11000,49874,37154,16133
57,11200,49874,37154,16133
58,11400,49874,37155,16133
59,11600,49874,37155,16133
60,11800,49874,37155,16133
61,12000,49874,37155,16133
62,12200,49874,37155,16133
63,12400,49874,37155,16133
64,12600,49874,37155,16133
65,12800,49874,37155,16133
66,13000,49874,37155,16133
67,13200,49874,37155,16133
68,13400,49874,37155,16133
69,13600,49874,37155,16133
70,13800,49874,37155,16133
71,14000,49874,37155,16133
72,14200,49874,37155,16133
73,14400,49874,37155,16133
74,14600,49874,37155,16133
75,14800,49874,37155,16133
76,15000,49874,37155,16133
77,15200,49874,37155,16133
78,15400,49874,37155,16133
79,15600,49874,37155,16133
80,15800,49874,37155,16133
81,16000,49874,37155,16133
82,16200,49874,37155,16133
83,16400,49874,37155,16133
84,16600,49874,37155,16133
85,16800,49874,37155,16133
86,17000,49874,37155,16133
87,17200,49874,37155,16133
88,17400,49874,37155,16133
89,17600,49874,37155,16133
90,17800,49874,37155,16133
91,18000,49874,37155,16133
92,18200,49874,37155,16133
93,18400,49874,37155,16133
94,18600,49874,37155,16133
95,18800,49874,37155,16133
96,19000,49874,37155,16133
97,19200,49874,37155,16133
98,19400,49874,37155,16133
99,19600,49874,37155,16133
100,19800,49874,37155,16133
101,20000,49874,37155,16133
102,20200,49874,37155,16133
103,20400,49874,37155,16133
104,20600,49874,37155,16133
105,20800,49874,37155,16133
106,21000,49874,37155,16133
107,21200,49874,37155,16134
108,21400,49874,37155,16134
109,21600,49874,37155,16134
110,21800,49874,37155,16134
111,22000,49874,37155,16134
112,22200,49874,37155,16134
113,22400,49874,37155,16134
114,22600,49874,37155,16134
115,22800,49874,37155,16134
116,23000,49874,37155,16134
117,23200,49874,37155,16134
118,23400,49874,37155,16134
119,23600,49874,37155,16134
120,23800,49874,37155,16134
121,24000,49874,37155,16134
122,24200,49874,37155,16134
123,24400,49874,37155,16134
124,24600,49874,37155,16134
125,24800,49874,37155,16134
126,25000,49874,37155,16134
127,25200,49874,37154,16134
128,25400,49874,37154,16134
129,25600,49874,37154,16134
130,25800,49874,37154,16134
131,26000,49874,37154,16134
132,26200,49874,37154,16134
133,26400,49874,37154,16134
134,26600,49874,37154,16134
135,26800,49874,37154,16134
136,27000,49874,37154,16134
137,27200,49874,37154,16134
138,27400,49874,37154,16134
139,27600,49874,37154,16134
140,27800,49874,37154,16134
141,28000,49874,37154,16134
142,28200,49874,37154,16134
143,28400,49874,37154,16134
144,28600,49874,37154,16133
145,28800,49874,37154,16133
146,29000,49874,37154,16133
147,29200,49874,37154,16133
148,29400,49874,37154,16133
149,29600,49874,37154,16133
150,29800,49874,37154,16133
151,30000,49874,37154,16133
152,30200,49874,37154,16133
153,30400,49874,37154,16133
154,30600,49874,37154,16133
155,30800,49874,37154,16133
156,31000,49874,37154,16133
157,31200,49874,37154,16133
158,31400,49874,37155,16133
159,31600,49874,37155,16133
160,31800,49874,37155,16133
161,32000,49874,37155,16133
162,32200,49874,37155,16133
163,32400,49874,37155,16133
164,32600,49874,37155,16133
165,32800,49874,37155,16133
166,33000,49874,37155,16133
167,33200,49874,37155,16133
168,33400,49874,37155,16133
169,33600,49874,37155,16133
170,33800,49874,37155,16133
171,34000,49874,37155,16133
172,34200,49874,37155,16133
173,34400,49874,37155,16133
174,34600,49874,37155,16133
175,34800,49874,37155,16133
176,35000,49874,37155,16133
177,35200,49874,37155,16133
178,35400,49874,37155,16133
179,35600,49874,37155,16133
180,35800,49874,37155,16133
181,36000,49874,37155,16133
182,36200,49874,37155,16133
183,36400,49874,37155,16133
184,36600,49874,37155,16133
185,36800,49874,37155,16133
186,37000,49874,37155,16133
187,37200,49874,37155,16133
188,37400,49874,37155,16133
189,37600,49874,37155,16133
190,37800,49874,37155,16133
191,38000,49874,37155,16133
192,38200,49874,37155,16133
193,38400,49874,37155,16133
194,38600,49874,37155,16133
195,38800,49874,37155,16133
196,39000,49874,37155,16133
197,39200,49874,37155,16133
198,39400,49874,37155,16133
199,39600,49874,37155,16133
200,39800,49874,37155,16133
201,40000,49874,37155,16133
202,40200,49874,37155,16133
203,40400,49874,37155,16133
204,40600,49874,37155,16133
205,40800,49874,37155,16133
206,41000,49874,37155,16133
207,41200,49874,37155,16134
208,41400,49874,37155,16134
209,41600,49874,37155,16134
210,41800,49874,37155,16134
211,42000,49874,37155,16134
212,42200,49874,37155,16134
213,42400,49874,37155,16134
214,42600,49874,37155,16134
215,42800,49874,37155,16134
216,43000,49874,37155,16134
217,43200,49874,37155,16134
218,43400,49874,37155,16134
219,43600,49874,37155,16134
220,43800,49874,37155,16134
221,44000,49874,37155,16134
222,44200,49874,37155,16134
223,44400,49874,37155,16134
224,44600,49874,37155,16134
225,44800,49874,37155,16134
226,45000,49874,37155,16134
227,45200,49874,37154,16134
228,45400,49874,37154,16134
229,45600,49874,37154,16134
230,45800,49874,37154,16134
231,46000,49874,37154,16134
232,46200,49874,37154,16134
233,46400,49874,37154,16134
234,46600,49874,37154,16134
235,46800,49874,37154,16134
236,47000,49874,37154,16134
237,47200,49874,37154,16134
238,47400,49874,37154,16134
239,47600,49874,37154,16134
240,47800,49874,37154,16134
241,48000,49874,37154,16134
242,48200,49874,37154,16134
243,48400,49874,37154,16134
244,48600,49874,37154,16133
245,48800,49874,37154,16133
246,49000,49874,37154,16133
247,49200,49874,37154,16133
248,49400,49874,37154,16133
249,49600,49874,37154,16133
250,49800,49874,37154,16133
251,50000,49874,37154,16133
252,50200,49874,37154,16133
253,50400,49874,37154,16133
254,50600,49874,37154,16133
255,50800,49874,37154,16133
256,51000,49874,37154,16133
257,51200,49874,37154,16133
258,51400,49874,37155,16133
259,51600,49874,37155,16133
260,51800,49874,37155,16133
261,52000,49874,37155,16133
262,52200,49874,37155,16133
263,52400,49874,37155,16133
264,52600,49874,37155,16133
265,52800,49874,37155,16133
266,53000,49874,37155,16133
267,53200,49874,37155,16133
268,53400,49874,37155,16133
269,53600,49874,37155,16133
270,53800,49874,37155,16133
271,54000,49874,37155,16133
272,54200,49874,37155,16133
273,54400,49874,37155,16133
274,54600,49874,37155,16133
275,54800,49874,37155,16133
276,55000,49874,37155,16133
277,55200,49874,37155,16133
278,55400,49874,37155,16133
279,55600,49874,37155,16133
280,55800,49874,37155,16133
281,56000,49874,37155,16133
282,56200,49874,37155,16133
283,56400,49874,37155,16133
284,56600,49874,37155,16133
285,56800,49874,37155,16133
286,57000,49874,37155,16133
287,57200,49874,37155,16133
288,57400,49874,37155,16133
289,57600,49874,37155,16133
290,57800,49874,37155,16133
291,58000,49874,37155,16133
292,58200,49874,37155,16133
293,58400,49874,37155,16133
294,58600,49874,37155,16133
295,58800,49874,37155,16133
296,59000,49874,37155,16133
297,59200,49874,37155,16133
298,59400,49874,37155,16133
299,59600,49874,37155,16133
300,59800,49874,37155,16133
301,60000,49874,37155,16133
302,60200,49874,37155,16133
303,60400,49874,37155,16133
304,60600,49874,37155,16133
305,60800,49874,37155,16133
306,61000,49874,37155,16133
307,61200,49874,37155,16134
308,61400,49874,37155,16134
309,61600,49874,37155,16134
310,61800,49874,37155,16134
311,62000,49874,37155,16134
312,62200,49874,37155,16134
313,62400,49874,37155,16134
314,62600,49874,37155,16134
315,62800,49874,37155,16134
316,63000,49874,37155,16134
317,63200,49874,37155,16134
318,63400,49874,37155,16134
319,63600,49874,37155,16134
320,63800,49874,37155,16134
321,64000,49874,37155,16134
322,64200,49874,37155,16134
323,64400,49874,37155,16134
324,64600,49874,37155,16134
325,64800,49874,37155,16134
326,65000,49874,37155,16134
327,65200,49874,37154,16134
328,65400,49874,37154,16134
329,65600,49874,37154,16134
330,65800,49874,37154,16134
331,66000,49874,37154,16134
332,66200,49874,37154,16134
333,66400,49874,37154,16134
334,66600,49874,37154,16134
335,66800,49874,37154,16134
336,67000,49874,37154,16134
337,67200,49874,37154,16134
338,67400,49874,37154,16134
339,67600,49874,37154,16134
340,67800,49874,37154,16134
341,68000,49874,37154,16134
342,68200,49874,37154,16134
343,68400,49874,37154,16134
344,68600,49874,37154,16133
345,68800,49874,37154,16133
346,69000,49874,37154,16133
347,69200,49874,37154,16133
348,69400,49874,37154,16133
349,69600,49874,37154,16133
350,69800,49874,37154,16133
351,70000,49874,37154,16133
352,70200,49874,37154,16133
353,70400,49874,37154,16133
354,70600,49874,37154,16133
355,70800,49874,37154,16133
356,71000,49874,37154,16133
357,71200,49874,37154,16133
358,71400,49874,37155,16133
359,71600,49874,37155,16133
360,71800,49874,37155,16133
361,72000,49874,37155,16133
362,72200,49874,37155,16133
363,72400,49874,37155,16133
364,72600,49874,37155,16133
365,72800,49874,37155,16133
366,73000,49874,37155,16133
367,73200,49874,37155,16133
368,73400,49874,37155,16133
369,73600,49874,37155,16133
370,73800,49874,37155,16133
371,74000,49874,37155,16133
372,74200,49874,37155,16133
373,74400,49874,37155,16133
374,74600,49874,37155,16133
375,74800,49874,37155,16133
376,75000,49874,37155,16133
377,75200,49874,37155,16133
378,75400,49874,37155,16133
379,75600,49874,37155,16133
380,75800,49874,37155,16133
381,76000,49874,37155,16133
382,76200,49874,37155,16133
383,76400,49874,37155,16133
384,76600,49874,37155,16133
385,76800,49874,37155,16133
386,77000,49874,37155,16133
387,77200,49874,37155,16133
388,77400,49874,37155,16133
389,77600,49874,37155,16133
390,77800,49874,37155,16133
391,78000,49874,37155,16133
392,78200,49874,37155,16133
393,78400,49874,37155,16133
394,78600,49874,37155,16133
395,78800,49874,37155,16133
396,79000,49874,37155,16133
397,79200,49874,37155,16133
398,79400,49874,37155,16133
399,79600,49874,37155,16133
400,79800,49874,37155,16133
401,80000,49874,37155,16133
402,80200,49874,37155,16133
403,80400,49874,37155,16133
404,80600,49874,37155,16133
405,80800,49874,37155,16133
406,81000,49874,37155,16133
407,81200,49874,37155,16134
408,81400,49874,37155,16134
409,81600,49874,37155,16134
410,81800,49874,37155,16134
411,82000,49874,37155,16134
412,82200,49874,37155,16134
413,82400,49874,37155,16134
414,82600,49874,37155,16134
415,82800,49874,37155,16134
416,83000,49874,37155,16134
417,83200,49874,37155,16134
418,83400,49874,37155,16134
419,83600,49874,37155,16134
420,83800,49874,37155,16134
421,84000,49874,37155,16134
422,84200,49874,37155,16134
423,84400,49874,37155,16134
424,84600,49874,37155,16134
425,84800,49874,37155,16134
426,85000,49874,37155,16134
427,85200,49874,37154,16134
428,85400,49874,37154,16134
429,85600,49874,37154,16134
430,85800,49874,37154,16134
431,86000,49874,37154,16134
432,86200,49874,37154,16134
433,86400,49874,37154,16134
434,86600,49874,37154,16134
435,86800,49874,37154,16134
436,87000,49874,37154,16134
437,87200,49874,37154,16134
438,87400,49874,37154,16134
439,87600,49874,37154,16134
440,87800,49874,37154,16134
441,88000,49874,37154,16134
442,88200,49874,37154,16134
443,88400,49874,37154,16134
444,88600,49874,37154,16133
445,88800,49874,37154,16133
446,89000,49874,37154,16133
447,89200,49874,37154,16133
448,89400,49874,37154,16133
449,89600,49874,37154,16133
450,89800,49874,37154,16133
451,90000,49874,37154,16133
452,90200,49874,37154,16133
453,90400,49874,37154,16133
454,90600,49874,37154,16133
455,90800,49874,37154,16133
456,91000,49874,37154,16133
457,91200,49874,37154,16133
458,91400,49874,37155,16133
459,91600,49874,37155,16133
460,91800,49874,37155,16133
461,92000,49874,37155,16133
462,92200,49874,37155,16133
463,92400,49874,37155,16133
464,92600,49874,37155,16133
465,92800,49874,37155,16133
466,93000,49874,37155,16133
467,93200,49874,37155,16133
468,93400,49874,37155,16133
469,93600,49874,37155,16133
470,93800,49874,37155,16133
471,94000,49874,37155,16133
472,94200,49874,37155,16133
473,94400,49874,37155,16133
474,94600,49874,37155,16133
475,94800,49874,37155,16133
476,95000,49874,37155,16133
477,95200,49874,37155,16133
478,95400,49874,37155,16133
479,95600,49874,37155,16133
480,95800,49874,37155,16133
481,96000,49874,37155,16133
482,96200,49874,37155,16133
483,96400,49874,37155,16133
484,96600,49874,37155,16133
485,96800,49874,37155,16133
486,97000,49874,37155,16133
487,97200,49874,37155,16133
488,97400,49874,37155,16133
489,97600,49874,37155,16133
490,97800,49874,37155,16133
491,98000,49874,37155,16133
492,98200,49874,37155,16133
493,98400,49874,37155,16133
494,98600,49874,37155,16133
495,98800,49874,37155,16133
496,99000,49874,37155,16133
497,99200,49874,37155,16133
498,99400,49874,37155,16133
499,99600,49874,37155,16133
500,99800,49874,37155,16133
501,100000,49874,37155,16133
502,100200,49874,37155,16133
503,100400,49874,37155,16133
504,100600,49874,37155,16133
505,100800,49874,37155,16133
506,101000,49874,37155,16133
507,101200,49874,37155,16134
508,101400,49874,37155,16134
509,101600,49874,37155,16134
510,101800,49874,37155,16134
511,102000,49874,37155,16134
512,102200,49874,37155,16134
513,102400,49874,37155,16134
514,102600,49874,37155,16134
515,102800,49874,37155,16134
516,103000,49874,37155,16134
517,103200,49874,37155,16134
518,103400,49874,37155,16134
519,103600,49874,37155,16134
520,103800,49874,37155,16134
521,104000,49874,37155,16134
522,104200,49874,37155,16134
523,104400,49874,37155,16134
524,104600,49874,37155,16134
525,104800,49874,37155,16134
526,105000,49874,37155,16134
527,105200,49874,37154,16134
528,105400,49874,37154,16134
529,105600,49874,37154,16134
530,105800,49874,37154,16134
531,106000,49874,37154,16134
532,106200,49874,37154,16134
533,106400,49874,37154,16134
534,106600,49874,37154,16134
535,106800,49874,37154,16134
536,107000,49874,37154,16134
537,107200,49874,37154,16134
538,107400,49874,37154,16134
539,107600,49874,37154,16134
540,107800,49874,37154,16134
541,108000,49874,37154,16134
542,108200,49874,37154,16134
543,108400,49874,37154,16134
544,108600,49874,37154,16133
545,108800,49874,37154,16133
546,109000,49874,37154,16133
547,109200,49874,37154,16133
548,109400,49874,37154,16133
549,109600,49874,37154,16133
550,109800,49874,37154,16133
551,110000,49874,37154,16133
552,110200,49874,37154,16133
553,110400,49874,37154,16133
554,110600,49874,37154,16133
555,110800,49874,37154,16133
556,111000,49874,37154,16133
557,111200,49874,37154,16133
558,111400,49874,37155,16133
559,111600,49874,37155,16133
560,111800,49874,37155,16133
561,112000,49874,37155,16133
562,112200,49874,37155,16133
563,112400,49874,37155,16133
564,112600,49874,37155,16133
565,112800,49874,37155,16133
566,113000,49874,37155,16133
567,113200,49874,37155,16133
568,113400,49874,37155,16133
569,113600,49874,37155,16133
570,113800,49874,37155,16133
571,114000,49874,37155,16133
572,114200,49874,37155,16133
573,114400,49874,37155,16133
574,114600,49874,37155,16133
575,114800,49874,37155,16133
576,115000,49874,37155,16133
577,115200,49874,37155,16133
578,115400,49874,37155,16133
579,115600,49874,37155,16133
580,115800,49874,37155,16133
581,116000,49874,37155,16133
582,116200,49874,37155,16133
583,116400,49874,37155,16133
584,116600,49874,37155,16133
585,116800,49874,37155,16133
586,117000,49874,37155,16133
587,117200,49874,37155,16133
588,117400,49874,37155,16133
589,117600,49874,37155,16133
590,117800,49874,37155,16133
591,118000,49874,37155,16133
592,118200,49874,37155,16133
593,118400,49874,37155,16133
594,118600,49874,37155,16133
595,118800,49874,37155,16133
596,119000,49874,37155,16133
597,119200,49874,37155,16133
598,119400,49874,37155,16133
599,119600,49874,37155,16133
600,119800,49874,37155,16133
601,120000,49874,37155,16133
602,120200,49874,37155,16133
603,120400,49874,37155,16133
604,120600,49874,37155,16133
605,120800,49874,37155,16133
606,121000,49874,37155,16133
607,121200,49874,37155,16134
608,121400,49874,37155,16134
609,121600,49874,37155,16134
610,121800,49874,37155,16134
611,122000,49874,37155,16134
612,122200,49874,37155,16134
613,122400,49874,37155,16134
614,122600,49874,37155,16134
615,122800,49874,37155,16134
616,123000,49874,37155,16134
617,123200,49874,37155,16134
618,123400,49874,37155,16134
619,123600,49874,37155,16134
620,123800,49874,37155,16134
621,124000,49874,37155,16134
622,124200,49874,37155,16134
623,124400,49874,37155,16134
624,124600,49874,37155,16134
625,124800,49874,37155,16134
626,125000,49874,37155,16134
627,125200,49874,37154,16134
628,125400,49874,37154,16134
629,125600,49874,37154,16134
630,125800,49874,37154,16134
631,126000,49874,37154,16134
632,126200,49874,37154,16134
633,126400,49874,37154,16134
634,126600,49874,37154,16134
635,126800,49874,37154,16134
636,127000,49874,37154,16134
637,127200,49874,37154,16134
638,127400,49874,37154,16134
639,127600,49874,37154,16134
640,127800,49874,37154,16134
641,128000,49874,37154,16134
642,128200,49874,37154,16134
643,128400,49874,37154,16134
644,128600,49874,37154,16133
645,128800,49874,37154,16133
646,129000,49874,37154,16133
647,129200,49874,37154,16133
648,129400,49874,37154,16133
649,129600,49874,37154,16133
650,129800,49874,37154,16133
651,130000,49874,37154,16133
652,130200,49874,37154,16133
653,130400,49874,37154,16133
654,130600,49874,37154,16133
655,130800,49874,37154,16133
656,131000,49874,37154,16133
657,131200,49874,37154,16133
658,131400,49874,37155,16133
659,131600,49874,37155,16133
660,131800,49874,37155,16133
661,132000,49874,37155,16133
662,132200,49874,37155,16133
663,132400,49874,37155,16133
664,132600,49874,37155,16133
665,132800,49874,37155,16133
666,133000,49874,37155,16133
667,133200,49874,37155,16133
668,133400,49874,37155,16133
669,133600,49874,37155,16133
670,133800,49874,37155,16133
671,134000,49874,37155,16133
672,134200,49874,37155,16133
673,134400,49874,37155,16133
674,134600,49874,37155,16133
675,134800,49874,37155,16133
676,135000,49874,37155,16133
677,135200,49874,37155,16133
678,135400,49874,37155,16133
679,135600,49874,37155,16133
680,135800,49874,37155,16133
681,136000,49874,37155,16133
682,136200,49874,37155,16133
683,136400,49874,37155,16133
684,136600,49874,37155,16133
685,136800,49874,37155,16133
686,137000,49874,37155,16133
687,137200,49874,37155,16133
688,137400,49874,37155,16133
689,137600,49874,37155,16133
690,137800,49874,37155,16133
691,138000,49874,37155,16133
692,138200,49874,37155,16133
693,138400,49874,37155,16133
694,138600,49874,37155,16133
695,138800,49874,37155,16133
696,139000,49874,37155,16133
697,139200,49874,37155,16133
698,139400,49874,37155,16133
699,139600,49874,37155,16133
700,139800,49874,37155,16133
701,140000,49874,37155,16133
702,140200,49874,37155,16133
703,140400,49874,37155,16133
