RTDS Simulation, 0,1999
3,3A,0D
1,I_Q5_A,,,KA,1.13637E-6,-0.0307801,0,0,65535,1.0,1.0,P
2,I_Q5_B,,,KA,3.07337E-6,-0.00239196,0,0,65535,1.0,1.0,P
3,I_Q5_C,,,KA,3.7236E-6,-0.239504,0,0,65535,1.0,1.0,P
50.0
1
5000.0,25000
26/10/2024,18:39:47.425000
26/10/2024,18:39:48.425000
ASCII
1
1,0,27087,778,64320
2,200,27087,778,64320
3,400,27087,778,64320
4,600,27087,778,64320
5,800,27087,778,64320
6,1000,27087,778,64320
7,1200,27087,778,64320
8,1400,27087,778,64320
9,1600,27087,778,64320
10,1800,27087,778,64320
11,2000,27087,778,64320
12,2200,27087,778,64320
13,2400,27087,778,64320
14,2600,27087,778,64320
15,2800,27087,778,64320
16,3000,27086,778,64320
17,3200,27086,778,64320
18,3400,27086,778,64320
19,3600,27086,778,64320
20,3800,27086,778,64320
21,4000,27086,778,64320
22,4200,27086,778,64320
23,4400,27086,778,64320
24,4600,27086,778,64320
25,4800,27086,778,64320
26,5000,27086,778,64320
27,5200,27086,778,64320
28,5400,27086,778,64320
29,5600,27086,778,64320
30,5800,27086,778,64320
31,6000,27086,778,64320
32,6200,27086,778,64320
33,6400,27086,778,64320
34,6600,27086,778,64320
35,6800,27086,778,64320
36,7000,27086,778,64320
37,7200,27086,778,64320
38,7400,27085,778,64320
39,7600,27085,778,64320
40,7800,27085,778,64320
41,8000,27085,778,64320
42,8200,27085,778,64320
43,8400,27085,778,64320
44,8600,27085,778,64320
45,8800,27085,778,64320
46,9000,27085,778,64320
47,9200,27085,778,64320
48,9400,27085,778,64320
49,9600,27085,778,64320
50,9800,27085,778,64320
51,10000,27085,778,64320
52,10200,27085,778,64320
53,10400,27085,778,64320
54,10600,27085,778,64320
55,10800,27085,778,64320
56,11000,27085,778,64320
57,11200,27085,778,64320
58,11400,27085,778,64320
59,11600,27085,778,64320
60,11800,27085,778,64320
61,12000,27085,778,64320
62,12200,27085,778,64320
63,12400,27085,778,64320
64,12600,27085,778,64320
65,12800,27085,778,64320
66,13000,27085,778,64320
67,13200,27085,778,64320
68,13400,27085,778,64320
69,13600,27085,778,64320
70,13800,27085,778,64320
71,14000,27085,778,64320
72,14200,27085,778,64320
73,14400,27085,778,64320
74,14600,27085,778,64320
75,14800,27085,778,64320
76,15000,27086,778,64320
77,15200,27086,778,64320
78,15400,27086,778,64320
79,15600,27086,778,64320
80,15800,27086,778,64320
81,16000,27086,778,64320
82,16200,27086,778,64320
83,16400,27086,778,64320
84,16600,27086,778,64320
85,16800,27086,777,64320
86,17000,27086,777,64320
87,17200,27086,777,64320
88,17400,27086,777,64320
89,17600,27086,777,64320
90,17800,27086,777,64320
91,18000,27086,777,64320
92,18200,27086,777,64320
93,18400,27086,777,64320
94,18600,27086,777,64320
95,18800,27086,777,64320
96,19000,27086,778,64320
97,19200,27086,778,64320
98,19400,27087,778,64320
99,19600,27087,778,64320
100,19800,27087,778,64320
101,20000,27087,778,64320
102,20200,27087,778,64320
103,20400,27087,778,64320
104,20600,27087,778,64320
105,20800,27087,778,64320
106,21000,27087,778,64320
107,21200,27087,778,64320
108,21400,27087,778,64320
109,21600,27087,778,64320
110,21800,27087,778,64320
111,22000,27087,778,64320
112,22200,27087,778,64320
113,22400,27087,778,64320
114,22600,27087,778,64320
115,22800,27087,778,64320
116,23000,27086,778,64320
117,23200,27086,778,64320
118,23400,27086,778,64320
119,23600,27086,778,64320
120,23800,27086,778,64320
121,24000,27086,778,64320
122,24200,27086,778,64320
123,24400,27086,778,64320
124,24600,27086,778,64320
125,24800,27086,778,64320
126,25000,27086,778,64320
127,25200,27086,778,64320
128,25400,27086,778,64320
129,25600,27086,778,64320
130,25800,27086,778,64320
131,26000,27086,778,64320
132,26200,27086,778,64320
133,26400,27086,778,64320
134,26600,27086,778,64320
135,26800,27086,778,64320
136,27000,27086,778,64320
137,27200,27086,778,64320
138,27400,27085,778,64320
139,27600,27085,778,64320
140,27800,27085,778,64320
141,28000,27085,778,64320
142,28200,27085,778,64320
143,28400,27085,778,64320
144,28600,27085,778,64320
145,28800,27085,778,64320
146,29000,27085,778,64320
147,29200,27085,778,64320
148,29400,27085,778,64320
149,29600,27085,778,64320
150,29800,27085,778,64320
151,30000,27085,778,64320
152,30200,27085,778,64320
153,30400,27085,778,64320
154,30600,27085,778,64320
155,30800,27085,778,64320
156,31000,27085,778,64320
157,31200,27085,778,64320
158,31400,27085,778,64320
159,31600,27085,778,64320
160,31800,27085,778,64320
161,32000,27085,778,64320
162,32200,27085,778,64320
163,32400,27085,778,64320
164,32600,27085,778,64320
165,32800,27085,778,64320
166,33000,27085,778,64320
167,33200,27085,778,64320
168,33400,27085,778,64320
169,33600,27085,778,64320
170,33800,27085,778,64320
171,34000,27085,778,64320
172,34200,27085,778,64320
173,34400,27085,778,64320
174,34600,27085,778,64320
175,34800,27085,778,64320
176,35000,27086,778,64320
177,35200,27086,778,64320
178,35400,27086,778,64320
179,35600,27086,778,64320
180,35800,27086,778,64320
181,36000,27086,778,64320
182,36200,27086,778,64320
183,36400,27086,778,64320
184,36600,27086,778,64320
185,36800,27086,777,64320
186,37000,27086,777,64320
187,37200,27086,777,64320
188,37400,27086,777,64320
189,37600,27086,777,64320
190,37800,27086,777,64320
191,38000,27086,777,64320
192,38200,27086,777,64320
193,38400,27086,777,64320
194,38600,27086,777,64320
195,38800,27086,777,64320
196,39000,27086,778,64320
197,39200,27086,778,64320
198,39400,27087,778,64320
199,39600,27087,778,64320
200,39800,27087,778,64320
201,40000,27087,778,64320
202,40200,27087,778,64320
203,40400,27087,778,64320
204,40600,27087,778,64320
205,40800,27087,778,64320
206,41000,27087,778,64320
207,41200,27087,778,64320
208,41400,27087,778,64320
209,41600,27087,778,64320
210,41800,27087,778,64320
211,42000,27087,778,64320
212,42200,27087,778,64320
213,42400,27087,778,64320
214,42600,27087,778,64320
215,42800,27087,778,64320
216,43000,27086,778,64320
217,43200,27086,778,64320
218,43400,27086,778,64320
219,43600,27086,778,64320
220,43800,27086,778,64320
221,44000,27086,778,64320
222,44200,27086,778,64320
223,44400,27086,778,64320
224,44600,27086,778,64320
225,44800,27086,778,64320
226,45000,27086,778,64320
227,45200,27086,778,64320
228,45400,27086,778,64320
229,45600,27086,778,64320
230,45800,27086,778,64320
231,46000,27086,778,64320
232,46200,27086,778,64320
233,46400,27086,778,64320
234,46600,27086,778,64320
235,46800,27086,778,64320
236,47000,27086,778,64320
237,47200,27086,778,64320
238,47400,27085,778,64320
239,47600,27085,778,64320
240,47800,27085,778,64320
241,48000,27085,778,64320
242,48200,27085,778,64320
243,48400,27085,778,64320
244,48600,27085,778,64320
245,48800,27085,778,64320
246,49000,27085,778,64320
247,49200,27085,778,64320
248,49400,27085,778,64320
249,49600,27085,778,64320
250,49800,27085,778,64320
251,50000,27085,778,64320
252,50200,27085,778,64320
253,50400,27085,778,64320
254,50600,27085,778,64320
255,50800,27085,778,64320
256,51000,27085,778,64320
257,51200,27085,778,64320
258,51400,27085,778,64320
259,51600,27085,778,64320
260,51800,27085,778,64320
261,52000,27085,778,64320
262,52200,27085,778,64320
263,52400,27085,778,64320
264,52600,27085,778,64320
265,52800,27085,778,64320
266,53000,27085,778,64320
267,53200,27085,778,64320
268,53400,27085,778,64320
269,53600,27085,778,64320
270,53800,27085,778,64320
271,54000,27085,778,64320
272,54200,27085,778,64320
273,54400,27085,778,64320
274,54600,27085,778,64320
275,54800,27085,778,64320
276,55000,27086,778,64320
277,55200,27086,778,64320
278,55400,27086,778,64320
279,55600,27086,778,64320
280,55800,27086,778,64320
281,56000,27086,778,64320
282,56200,27086,778,64320
283,56400,27086,778,64320
284,56600,27086,778,64320
285,56800,27086,777,64320
286,57000,27086,777,64320
287,57200,27086,777,64320
288,57400,27086,777,64320
289,57600,27086,777,64320
290,57800,27086,777,64320
291,58000,27086,777,64320
292,58200,27086,777,64320
293,58400,27086,777,64320
294,58600,27086,777,64320
295,58800,27086,777,64320
296,59000,27086,778,64320
297,59200,27086,778,64320
298,59400,27087,778,64320
299,59600,27087,778,64320
300,59800,27087,778,64320
301,60000,27087,778,64320
302,60200,27087,778,64320
303,60400,27087,778,64320
304,60600,27087,778,64320
305,60800,27087,778,64320
306,61000,27087,778,64320
307,61200,27087,778,64320
308,61400,27087,778,64320
309,61600,27087,778,64320
310,61800,27087,778,64320
311,62000,27087,778,64320
312,62200,27087,778,64320
313,62400,27087,778,64320
314,62600,27087,778,64320
315,62800,27087,778,64320
316,63000,27086,778,64320
317,63200,27086,778,64320
318,63400,27086,778,64320
319,63600,27086,778,64320
320,63800,27086,778,64320
321,64000,27086,778,64320
322,64200,27086,778,64320
323,64400,27086,778,64320
324,64600,27086,778,64320
325,64800,27086,778,64320
326,65000,27086,778,64320
327,65200,27086,778,64320
328,65400,27086,778,64320
329,65600,27086,778,64320
330,65800,27086,778,64320
331,66000,27086,778,64320
332,66200,27086,778,64320
333,66400,27086,778,64320
334,66600,27086,778,64320
335,66800,27086,778,64320
336,67000,27086,778,64320
337,67200,27086,778,64320
338,67400,27085,778,64320
339,67600,27085,778,64320
340,67800,27085,778,64320
341,68000,27085,778,64320
342,68200,27085,778,64320
343,68400,27085,778,64320
344,68600,27085,778,64320
345,68800,27085,778,64320
346,69000,27085,778,64320
347,69200,27085,778,64320
348,69400,27085,778,64320
349,69600,27085,778,64320
350,69800,27085,778,64320
351,70000,27085,778,64320
352,70200,27085,778,64320
353,70400,27085,778,64320
354,70600,27085,778,64320
355,70800,27085,778,64320
356,71000,27085,778,64320
357,71200,27085,778,64320
358,71400,27085,778,64320
359,71600,27085,778,64320
360,71800,27085,778,64320
361,72000,27085,778,64320
362,72200,27085,778,64320
363,72400,27085,778,64320
364,72600,27085,778,64320
365,72800,27085,778,64320
366,73000,27085,778,64320
367,73200,27085,778,64320
368,73400,27085,778,64320
369,73600,27085,778,64320
370,73800,27085,778,64320
371,74000,27085,778,64320
372,74200,27085,778,64320
373,74400,27085,778,64320
374,74600,27085,778,64320
375,74800,27085,778,64320
376,75000,27086,778,64320
377,75200,27086,778,64320
378,75400,27086,778,64320
379,75600,27086,778,64320
380,75800,27086,778,64320
381,76000,27086,778,64320
382,76200,27086,778,64320
383,76400,27086,778,64320
384,76600,27086,778,64320
385,76800,27086,777,64320
386,77000,27086,777,64320
387,77200,27086,777,64320
388,77400,27086,777,64320
389,77600,27086,777,64320
390,77800,27086,777,64320
391,78000,27086,777,64320
392,78200,27086,777,64320
393,78400,27086,777,64320
394,78600,27086,777,64320
395,78800,27086,777,64320
396,79000,27086,778,64320
397,79200,27086,778,64320
398,79400,27087,778,64320
399,79600,27087,778,64320
400,79800,27087,778,64320
401,80000,27087,778,64320
402,80200,27087,778,64320
403,80400,27087,778,64320
404,80600,27087,778,64320
405,80800,27087,778,64320
406,81000,27087,778,64320
407,81200,27087,778,64320
408,81400,27087,778,64320
409,81600,27087,778,64320
410,81800,27087,778,64320
411,82000,27087,778,64320
412,82200,27087,778,64320
413,82400,27087,778,64320
414,82600,27087,778,64320
415,82800,27087,778,64320
416,83000,27086,778,64320
417,83200,27086,778,64320
418,83400,27086,778,64320
419,83600,27086,778,64320
420,83800,27086,778,64320
421,84000,27086,778,64320
422,84200,27086,778,64320
423,84400,27086,778,64320
424,84600,27086,778,64320
425,84800,27086,778,64320
426,85000,27086,778,64320
427,85200,27086,778,64320
428,85400,27086,778,64320
429,85600,27086,778,64320
430,85800,27086,778,64320
431,86000,27086,778,64320
432,86200,27086,778,64320
433,86400,27086,778,64320
434,86600,27086,778,64320
435,86800,27086,778,64320
436,87000,27086,778,64320
437,87200,27086,778,64320
438,87400,27085,778,64320
439,87600,27085,778,64320
440,87800,27085,778,64320
441,88000,27085,778,64320
442,88200,27085,778,64320
443,88400,27085,778,64320
444,88600,27085,778,64320
445,88800,27085,778,64320
446,89000,27085,778,64320
447,89200,27085,778,64320
448,89400,27085,778,64320
449,89600,27085,778,64320
450,89800,27085,778,64320
451,90000,27085,778,64320
452,90200,27085,778,64320
453,90400,27085,778,64320
454,90600,27085,778,64320
455,90800,27085,778,64320
456,91000,27085,778,64320
457,91200,27085,778,64320
458,91400,27085,778,64320
459,91600,27085,778,64320
460,91800,27085,778,64320
461,92000,27085,778,64320
462,92200,27085,778,64320
463,92400,27085,778,64320
464,92600,27085,778,64320
465,92800,27085,778,64320
466,93000,27085,778,64320
467,93200,27085,778,64320
468,93400,27085,778,64320
469,93600,27085,778,64320
470,93800,27085,778,64320
471,94000,27085,778,64320
472,94200,27085,778,64320
473,94400,27085,778,64320
474,94600,27085,778,64320
475,94800,27085,778,64320
476,95000,27086,778,64320
477,95200,27086,778,64320
478,95400,27086,778,64320
479,95600,27086,778,64320
480,95800,27086,778,64320
481,96000,27086,778,64320
482,96200,27086,778,64320
483,96400,27086,778,64320
484,96600,27086,778,64320
485,96800,27086,777,64320
486,97000,27086,777,64320
487,97200,27086,777,64320
488,97400,27086,777,64320
489,97600,27086,777,64320
490,97800,27086,777,64320
491,98000,27086,777,64320
492,98200,27086,777,64320
493,98400,27086,777,64320
494,98600,27086,777,64320
495,98800,27086,777,64320
496,99000,27086,778,64320
497,99200,27086,778,64320
498,99400,27087,778,64320
499,99600,27087,778,64320
500,99800,27087,778,64320
501,100000,27087,778,64320
502,100200,27087,778,64320
503,100400,27087,778,64320
504,100600,27087,778,64320
505,100800,27087,778,64320
506,101000,27087,778,64320
507,101200,27087,778,64320
508,101400,27087,778,64320
509,101600,27087,778,64320
510,101800,27087,778,64320
511,102000,27087,778,64320
512,102200,27087,778,64320
513,102400,27087,778,64320
514,102600,27087,778,64320
515,102800,27087,778,64320
516,103000,27086,778,64320
517,103200,27086,778,64320
518,103400,27086,778,64320
519,103600,27086,778,64320
520,103800,27086,778,64320
521,104000,27086,778,64320
522,104200,27086,778,64320
523,104400,27086,778,64320
524,104600,27086,778,64320
525,104800,27086,778,64320
526,105000,27086,778,64320
527,105200,27086,778,64320
528,105400,27086,778,64320
529,105600,27086,778,64320
530,105800,27086,778,64320
531,106000,27086,778,64320
532,106200,27086,778,64320
533,106400,27086,778,64320
534,106600,27086,778,64320
535,106800,27086,778,64320
536,107000,27086,778,64320
537,107200,27086,778,64320
538,107400,27085,778,64320
539,107600,27085,778,64320
540,107800,27085,778,64320
541,108000,27085,778,64320
542,108200,27085,778,64320
543,108400,27085,778,64320
544,108600,27085,778,64320
545,108800,27085,778,64320
546,109000,27085,778,64320
547,109200,27085,778,64320
548,109400,27085,778,64320
549,109600,27085,778,64320
550,109800,27085,778,64320
551,110000,27085,778,64320
552,110200,27085,778,64320
553,110400,27085,778,64320
554,110600,27085,778,64320
555,110800,27085,778,64320
556,111000,27085,778,64320
557,111200,27085,778,64320
558,111400,27085,778,64320
559,111600,27085,778,64320
560,111800,27085,778,64320
561,112000,27085,778,64320
562,112200,27085,778,64320
563,112400,27085,778,64320
564,112600,27085,778,64320
565,112800,27085,778,64320
566,113000,27085,778,64320
567,113200,27085,778,64320
568,113400,27085,778,64320
569,113600,27085,778,64320
570,113800,27085,778,64320
571,114000,27085,778,64320
572,114200,27085,778,64320
573,114400,27085,778,64320
574,114600,27085,778,64320
575,114800,27085,778,64320
576,115000,27086,778,64320
577,115200,27086,778,64320
578,115400,27086,778,64320
579,115600,27086,778,64320
580,115800,27086,778,64320
581,116000,27086,778,64320
582,116200,27086,778,64320
583,116400,27086,778,64320
584,116600,27086,778,64320
585,116800,27086,777,64320
586,117000,27086,777,64320
587,117200,27086,777,64320
588,117400,27086,777,64320
589,117600,27086,777,64320
590,117800,27086,777,64320
591,118000,27086,777,64320
592,118200,27086,777,64320
593,118400,27086,777,64320
594,118600,27086,777,64320
595,118800,27086,777,64320
596,119000,27086,778,64320
597,119200,27086,778,64320
598,119400,27087,778,64320
599,119600,27087,778,64320
600,119800,27087,778,64320
601,120000,27087,778,64320
602,120200,27087,778,64320
603,120400,27087,778,64320
604,120600,27087,778,64320
605,120800,27087,778,64320
606,121000,27087,778,64320
607,121200,27087,778,64320
608,121400,27087,778,64320
609,121600,27087,778,64320
610,121800,27087,778,64320
611,122000,27087,778,64320
612,122200,27087,778,64320
613,122400,27087,778,64320
614,122600,27087,778,64320
615,122800,27087,778,64320
616,123000,27086,778,64320
617,123200,27086,778,64320
618,123400,27086,778,64320
619,123600,27086,778,64320
620,123800,27086,778,64320
621,124000,27086,778,64320
622,124200,27086,778,64320
623,124400,27086,778,64320
624,124600,27086,778,64320
625,124800,27086,778,64320
626,125000,27086,778,64320
627,125200,27086,778,64320
628,125400,27086,778,64320
629,125600,27086,778,64320
630,125800,27086,778,64320
631,126000,27086,778,64320
632,126200,27086,778,64320
633,126400,27086,778,64320
634,126600,27086,778,64320
635,126800,27086,778,64320
636,127000,27086,778,64320
637,127200,27086,778,64320
638,127400,27085,778,64320
639,127600,27085,778,64320
640,127800,27085,778,64320
641,128000,27085,778,64320
642,128200,27085,778,64320
643,128400,27085,778,64320
644,128600,27085,778,64320
645,128800,27085,778,64320
646,129000,27085,778,64320
647,129200,27085,778,64320
648,129400,27085,778,64320
649,129600,27085,778,64320
650,129800,27085,778,64320
651,130000,27085,778,64320
652,130200,27085,778,64320
653,130400,27085,778,64320
654,130600,27085,778,64320
655,130800,27085,778,64320
656,131000,27085,778,64320
657,131200,27085,778,64320
658,131400,27085,778,64320
659,131600,27085,778,64320
660,131800,27085,778,64320
661,132000,27085,778,64320
662,132200,27085,778,64320
663,132400,27085,778,64320
664,132600,27085,778,64320
665,132800,27085,778,64320
666,133000,27085,778,64320
667,133200,27085,778,64320
668,133400,27085,778,64320
669,133600,27085,778,64320
670,133800,27085,778,64320
671,134000,27085,778,64320
672,134200,27085,778,64320
673,134400,27085,778,64320
674,134600,27085,778,64320
675,134800,27085,778,64320
676,135000,27086,778,64320
677,135200,27086,778,64320
678,135400,27086,778,64320
679,135600,27086,778,64320
680,135800,27086,778,64320
681,136000,27086,778,64320
682,136200,27086,778,64320
683,136400,27086,778,64320
684,136600,27086,778,64320
685,136800,27086,777,64320
686,137000,27086,777,64320
687,137200,27086,777,64320
688,137400,27086,777,64320
689,137600,27086,777,64320
690,137800,27086,777,64320
691,138000,27086,777,64320
692,138200,27086,777,64320
693,138400,27086,777,64320
694,138600,27086,777,64320
695,138800,27086,777,64320
696,139000,27086,778,64320
697,139200,27086,778,64320
698,139400,27087,778,64320
699,139600,27087,778,64320
700,139800,27087,778,64320
701,140000,27087,778,64320
702,140200,27087,778,64320
703,140400,27087,778,64320
704,140600,27087,778,64320
705,140800,27087,778,64320
706,141000,27087,778,64320
707,141200,27087,778,64320
708,141400,27087,778,64320
709,141600,27087,778,64320
710,141800,27087,778,64320
711,142000,27087,778,64320
712,142200,27087,778,64320
713,142400,27087,778,64320
714,142600,27087,778,64320
715,142800,27087,778,64320
716,143000,27086,778,64320
717,143200,27086,778,64320
718,143400,27086,778,64320
719,143600,27086,778,64320
720,143800,27086,778,64320
721,144000,27086,778,64320
722,144200,27086,778,64320
723,144400,27086,778,64320
724,144600,27086,778,64320
725,144800,27086,778,64320
726,145000,27086,778,64320
727,145200,27086,778,64320
728,145400,27086,778,64320
729,145600,27086,778,64320
730,145800,27086,778,64320
731,146000,27086,778,64320
732,146200,27086,778,64320
733,146400,27086,778,64320
734,146600,27086,778,64320
735,146800,27086,778,64320
736,147000,27086,778,64320
737,147200,27086,778,64320
738,147400,27085,778,64320
739,147600,27085,778,64320
740,147800,27085,778,64320
741,148000,27085,778,64320
742,148200,27085,778,64320
743,148400,27085,778,64320
744,148600,27085,778,64320
745,148800,27085,778,64320
746,149000,27085,778,64320
747,149200,27085,778,64320
748,149400,27085,778,64320
749,149600,27085,778,64320
750,149800,27085,778,64320
751,150000,27085,778,64320
752,150200,27085,778,64320
753,150400,27085,778,64320
754,150600,27085,778,64320
